! TTR506A,Tektronix,B010319,Application version 2.0.1.4ead5a2e Firmware version 066185400
! 
! Freq ReS11 ImS11 ReS21 ImS21 ReS12 ImS12 ReS22 ImS22
# HZ S RI R 50
         1000000   -0.0034752001   -0.0051685647      0.96935008    0.0044150557        1.004894   -0.0026339854    0.0057249642    0.0069058235
         3999500    -0.035386715   -0.0067353891       0.9759322    -0.011671513       1.0025107   -0.0090753247   -0.0069211057   -0.0018065561
         6999000     -0.02360636    0.0036549453      0.98320223    -0.020900283       1.0004469    -0.019285987    0.0010423581  -0.00039444029
         9998500    -0.016400098    0.0056794334      0.99097579    -0.028534041      0.99905861    -0.029099657   0.00049653577   -0.0011957819
        12998000   -0.0018615485  -0.00089194737      0.99728066    -0.036963183      0.99728173    -0.037197955  -0.00060444965   -0.0013988457
        15997500   -0.0020870856   -0.0012826941      0.99741566    -0.046293845      0.99745089    -0.045726039  -0.00093252793   -0.0020297493
        18997000   -0.0024372069   -0.0017355219      0.99723287    -0.055243368      0.99686315    -0.054285442   -0.0011593627   -0.0024855877
        21996500   -0.0028588983   -0.0019952068      0.99626846    -0.063408122      0.99704378    -0.063622535   -0.0013266729   -0.0027656751
        24996000   -0.0025215082   -0.0023525754      0.99629709    -0.072287926      0.99971408    -0.071960455   -0.0013807085   -0.0029866136
        27995500   -0.0028635473   -0.0026085609      0.99536405    -0.080903052      0.99880669    -0.080526864   -0.0017451084   -0.0033942576
        30995000   -0.0030284565   -0.0031755808      0.99420453     -0.08911535      0.99775208    -0.089100816   -0.0018766942   -0.0038062258
        33994500   -0.0029357072   -0.0030484034      0.99441635    -0.098169552      0.99637572    -0.098130237   -0.0021487833   -0.0042272329
        36994000   -0.0031284073   -0.0034772091       0.9934582     -0.10698726      0.99576164     -0.10710065   -0.0022945914   -0.0045863734
        39993500   -0.0032592426   -0.0038259389      0.99210008     -0.11605071      0.99471888     -0.11553618   -0.0021224349   -0.0048751462
        42993000   -0.0035124896   -0.0042427827      0.99094365      -0.1244799      0.99284352     -0.12443301   -0.0024998092   -0.0052168869
        45992500   -0.0036775361   -0.0044648287      0.99063734     -0.13275325      0.99185883      -0.1326347   -0.0029000586   -0.0055398951
        48992000   -0.0037840573   -0.0051308922      0.98839844     -0.14151962      0.99038639     -0.14144279   -0.0030591195   -0.0059541561
        51991500    -0.004019293   -0.0053964144      0.98692912     -0.14918808      0.98987391     -0.14983552   -0.0030414689   -0.0062313877
        54991000   -0.0041397292   -0.0061410684      0.98553722     -0.15805311      0.98781204     -0.15802745   -0.0034757777   -0.0065728518
        57990500    -0.004433757   -0.0064711361      0.98506359     -0.16707333      0.98645731     -0.16648531   -0.0038453922     -0.00717059
        60990000   -0.0046955716   -0.0075261044       0.9827269     -0.17555303      0.98511548     -0.17516634   -0.0039953989   -0.0075784514
        63989500   -0.0048995697   -0.0089269785      0.98121167     -0.18407439      0.98359767     -0.18401628   -0.0040072956   -0.0082590925
        66989000   -0.0051161369     -0.01042952      0.97973755     -0.19244417      0.98285603     -0.19235294   -0.0041982412   -0.0088337666
        69988500   -0.0053626703    -0.012039869      0.97699071      -0.2010735      0.98052281     -0.20092425   -0.0045866166   -0.0098068628
        72988000   -0.0054159704    -0.013386626      0.97525569     -0.20954461      0.97886249     -0.20910618   -0.0047601968    -0.010555898
        75987500   -0.0053823823    -0.013958689      0.97492682     -0.21816089      0.97712812     -0.21799872   -0.0045736111    -0.011192289
        78987000   -0.0051867587      -0.0144027      0.97143242     -0.22574365      0.97485484     -0.22615118   -0.0043730773    -0.011331122
        81986500   -0.0044280624    -0.013756259      0.96947986     -0.23359474      0.97298098     -0.23468235   -0.0040614427    -0.011031362
        84986000   -0.0033282293    -0.013168133      0.96742109     -0.24202264      0.97100964     -0.24236082   -0.0034418283    -0.010467946
        87985500   -0.0026793241    -0.012234957      0.96591627     -0.25027452      0.96869032     -0.25114705   -0.0029367987   -0.0098839057
        90985000   -0.0017630753    -0.011811719      0.96308455     -0.25900231      0.96608397     -0.25883651   -0.0025083973   -0.0096791052
        93984500   -0.0013958632    -0.011433757      0.96068107     -0.26707907      0.96426162     -0.26798662   -0.0023268357   -0.0092336144
        96984000    -0.001127007    -0.011255299      0.95822493     -0.27555196      0.96127288     -0.27609829   -0.0021173443    -0.009254246
        99983500  -0.00090683226    -0.011277626      0.95537318     -0.28367657      0.95901295     -0.28430574   -0.0024592975   -0.0095395609
     1.02983e+08  -0.00086083686    -0.011496412      0.95321274     -0.29222556      0.95651051     -0.29267535   -0.0023343899   -0.0096100019
    1.059825e+08   -0.0010919512    -0.011752683      0.95104319     -0.30007276      0.95304871     -0.30017694    -0.002581752   -0.0098178131
     1.08982e+08   -0.0012430824    -0.011598086      0.94699705     -0.30804733      0.95065683      -0.3084465   -0.0027243688    -0.010011691
    1.119815e+08   -0.0014719926    -0.011665908      0.94501904     -0.31601656      0.94792554     -0.31665437   -0.0026359614    -0.010202573
     1.14981e+08   -0.0014736803    -0.011594151      0.94227123     -0.32432009      0.94464822     -0.32508957   -0.0028720921    -0.010102889
    1.179805e+08   -0.0016999725    -0.011687708      0.93933986     -0.33233747      0.94216665     -0.33314164   -0.0028312379     -0.01051106
      1.2098e+08   -0.0018975885    -0.011866544      0.93552588     -0.34041201      0.93947752     -0.34155565   -0.0030370971    -0.010634516
    1.239795e+08   -0.0021979766    -0.011532555      0.93325696     -0.34892991      0.93580786     -0.34944911   -0.0030175265    -0.010713009
     1.26979e+08   -0.0021605182    -0.011523305      0.93033848     -0.35673621      0.93339935      -0.3575344    -0.003185269    -0.011102906
    1.299785e+08   -0.0025149384    -0.011127714      0.92694148     -0.36484385      0.92960325     -0.36577964   -0.0032825978    -0.011098862
     1.32978e+08    -0.002258149    -0.010850585      0.92378429     -0.37228856      0.92697923     -0.37345616    -0.003314007    -0.011065001
    1.359775e+08   -0.0020944193    -0.010029227      0.92085676     -0.37991948      0.92302227     -0.38070571     -0.00325124    -0.011148872
     1.38977e+08   -0.0018623025   -0.0092181691       0.9178715     -0.38790686      0.92061144     -0.38905492   -0.0032561184    -0.010835333
    1.419765e+08   -0.0019376904   -0.0080688966      0.91435226     -0.39606676      0.91632925     -0.39673274   -0.0031858123    -0.010253633
     1.44976e+08   -0.0017308056   -0.0071289496      0.91067745     -0.40367356      0.91353169     -0.40440535   -0.0030245356   -0.0097368901
    1.479755e+08   -0.0018997209   -0.0060994429       0.9069489     -0.41145206      0.90897583     -0.41240412   -0.0027213515    -0.008986677
     1.50975e+08   -0.0021311148   -0.0049740097      0.90331518     -0.41972259      0.90579982     -0.42017612   -0.0027807873    -0.008423088
    1.539745e+08   -0.0027880074   -0.0052697047      0.89949953     -0.42704149      0.90202861      -0.4285238    -0.003171544   -0.0080425775
     1.56974e+08   -0.0037512675    -0.005069479      0.89550322     -0.43474677      0.89723736     -0.43599562    -0.004033889    -0.008148629
    1.599735e+08   -0.0054004157   -0.0057621932      0.89141335     -0.44260452      0.89469565     -0.44355325   -0.0050759884   -0.0084871479
     1.62973e+08   -0.0071523397   -0.0067994544      0.88773731     -0.44981032      0.89019985      -0.4508567   -0.0061597873   -0.0092055804
    1.659725e+08   -0.0089931537   -0.0075990199      0.88362039     -0.45721345      0.88675819     -0.45805916   -0.0081510332    -0.010033572
     1.68972e+08    -0.010731539   -0.0082791574      0.87989015     -0.46439108      0.88257408     -0.46581169   -0.0096225719    -0.010789195
    1.719715e+08    -0.012297684   -0.0091076045       0.8758133     -0.47213588      0.87862845     -0.47297287    -0.010823568     -0.01140819
     1.74971e+08    -0.013225176    -0.009656458       0.8718065     -0.47950316       0.8739371      -0.4807479    -0.011694958    -0.011537691
    1.779705e+08     -0.01370342   -0.0099211474      0.86733226     -0.48685731      0.86948694      -0.4881795    -0.012049635    -0.011694054
      1.8097e+08    -0.014285893    -0.010446643      0.86280956      -0.4944484      0.86538743     -0.49527001    -0.012414637    -0.011880099
    1.839695e+08    -0.014432343     -0.01066193      0.85896062     -0.50236794       0.8609082     -0.50311482     -0.01279645    -0.012065614
     1.86969e+08    -0.014368917    -0.010617473      0.85380762     -0.50975383      0.85642263     -0.51080382    -0.012814431    -0.011888074
    1.899685e+08    -0.013591691     -0.01099183      0.84924628     -0.51651043      0.85179225      -0.5178558     -0.01217503    -0.011907762
     1.92968e+08      -0.0136271    -0.011958524      0.84471562     -0.52421703      0.84752061      -0.5249619    -0.012124229    -0.012767968
    1.959675e+08    -0.013946281    -0.012620717      0.84059002     -0.53170261      0.84252474     -0.53187143    -0.012689513    -0.013587415
     1.98967e+08    -0.014795786    -0.013203023      0.83527362     -0.53881958       0.8379475     -0.53922604     -0.01337948    -0.013702724
    2.019665e+08    -0.022010689   -0.0099903782      0.82752507     -0.54596187      0.83085184     -0.54667779    -0.017460649      -0.0113624
     2.04966e+08    -0.023932302    -0.012085331      0.82265478     -0.55340938      0.82462917     -0.55252596    -0.018894435    -0.011273227
    2.079655e+08    -0.025056924    -0.012941002      0.81847274     -0.55950038      0.81853102     -0.56063282    -0.019809243    -0.011517109
     2.10965e+08    -0.026280631    -0.014266123      0.81232288      -0.5693682      0.81494167     -0.56760372    -0.020024824    -0.011999483
    2.139645e+08    -0.027211429    -0.015802701      0.80605242     -0.57498637      0.81138454     -0.57492554    -0.022332058    -0.012114389
     2.16964e+08    -0.029529647    -0.018199318       0.8057874     -0.58305804       0.8053151     -0.58094088    -0.023807469    -0.013535298
    2.199635e+08    -0.029573443     -0.01793752      0.79988287     -0.59098748      0.80252767     -0.59000959    -0.024600504    -0.013918475
     2.22963e+08    -0.030718803     -0.01962384      0.79555552     -0.59566024      0.79827857     -0.59816906    -0.026109332    -0.014116473
    2.259625e+08    -0.032846592     -0.02062288      0.79051293     -0.60298606      0.79255894     -0.60446817    -0.027623745    -0.014855378
     2.28962e+08    -0.033377006     -0.02194896      0.78718378     -0.61078648      0.78914702     -0.61124689    -0.027561062    -0.016253593
    2.319615e+08    -0.032560686     -0.02390186      0.78039646     -0.61744377      0.78262297     -0.61802803    -0.027413492    -0.017347775
     2.34961e+08    -0.028477252    -0.025321161      0.77678246     -0.62321796       0.7783485      -0.6245434    -0.024594847    -0.019177876
    2.379605e+08    -0.024900046    -0.027882365      0.77079673     -0.62997197      0.77162394     -0.63040769    -0.023786211    -0.021072428
      2.4096e+08    -0.021329893      -0.0287154      0.76615484     -0.63630576      0.76861258     -0.63715759     -0.02192333    -0.025357585
    2.439595e+08    -0.018065287    -0.030294818      0.76204787     -0.64316618      0.76196892     -0.64304192    -0.020606144    -0.026238711
     2.46959e+08    -0.015711869    -0.032309068       0.7549779      -0.6495719      0.75626957     -0.64922335    -0.019519719    -0.027659929
    2.499585e+08    -0.015351025    -0.031915333      0.74919362     -0.65556934      0.75183155     -0.65512746    -0.020555881    -0.025588242
     2.52958e+08    -0.015092555    -0.031868485      0.74251258     -0.66079586      0.74563316     -0.66232347    -0.019267293    -0.026302159
    2.559575e+08    -0.014770983    -0.030498158      0.73748676      -0.6667615      0.74003419     -0.66792717    -0.019476913    -0.025528179
     2.58957e+08    -0.015397619    -0.030626416      0.73129931      -0.6722042      0.73327732     -0.67447337    -0.019405264    -0.024893201
    2.619565e+08    -0.014707938    -0.029788562      0.72401203       -0.679877       0.7268533     -0.67961846    -0.019259208     -0.02417926
     2.64956e+08    -0.014182295    -0.028590262      0.71790047     -0.68456799       0.7214595     -0.68556246    -0.017207493    -0.024625166
    2.679555e+08     -0.01312671     -0.02803256      0.71428643     -0.69215271      0.71470696     -0.69296173    -0.017136916    -0.024119713
     2.70955e+08    -0.011623965    -0.026174336      0.70642873      -0.6960193      0.70842936     -0.69796381    -0.017025558     -0.02441974
    2.739545e+08    -0.011187055    -0.026026492       0.7010016     -0.70321472      0.70226275     -0.70484406    -0.017123523     -0.02391208
     2.76954e+08      -0.0106531    -0.025387706      0.69555595     -0.71034892      0.69616573     -0.71086087    -0.015171367    -0.023450339
    2.799535e+08     -0.01005339    -0.023308927      0.68981363     -0.71567516      0.68856472     -0.71603542    -0.016018154    -0.024445165
     2.82953e+08   -0.0089677055    -0.022834469      0.68224158     -0.72303448      0.68458096     -0.72250843    -0.016122494    -0.023598008
    2.859525e+08   -0.0072350383     -0.02151639      0.67535837     -0.72786679      0.67789888     -0.72790476    -0.014235838    -0.024176097
     2.88952e+08   -0.0055334784    -0.020005351      0.66922441     -0.73384996      0.67109654     -0.73334237    -0.013004003    -0.023542023
    2.919515e+08   -0.0049998999    -0.019682768      0.66425204     -0.73946179      0.66487715     -0.73796776    -0.012736637    -0.023679875
     2.94951e+08   -0.0033798722    -0.017704485      0.65763607     -0.74507125      0.65872453     -0.74469377   -0.0097704879    -0.024060449
    2.979505e+08   -0.0024831198    -0.017651808      0.65127695     -0.75056802      0.65295302     -0.75123938   -0.0087735471    -0.023872025
      3.0095e+08   -0.0008562384    -0.017564708      0.64611821     -0.75720959      0.64729185      -0.7573472   -0.0085984175    -0.023956196
    3.039495e+08  -0.00046749068    -0.016199118      0.64053324     -0.76230393      0.63978315     -0.76148409   -0.0077442982    -0.023974529
     3.06949e+08   0.00063844678    -0.015084422      0.63298328     -0.76836593       0.6347321     -0.76794604   -0.0060500309    -0.022510662
    3.099485e+08   -0.0011471866    -0.012226303      0.62592578     -0.77265892      0.62656086      -0.7739893   -0.0087876385    -0.020820684
     3.12948e+08   -0.0029098065    -0.010217759      0.61997947     -0.77813803      0.62100829     -0.77827277   -0.0094715105    -0.017169003
    3.159475e+08   -0.0063100153   -0.0063783243      0.61261898     -0.78244436      0.61262825     -0.78286664   -0.0088087518    -0.013145797
     3.18947e+08   -0.0089170808   -0.0025539753      0.60713127     -0.78659651      0.60525531     -0.78733195   -0.0097038908   -0.0096571187
    3.219465e+08    -0.012048928   0.00090313586      0.59987038     -0.79262787      0.60085848     -0.79349768    -0.012111023   -0.0087352384
     3.24946e+08    -0.015134132    0.0033030257      0.59246315     -0.79718508      0.59400114     -0.79692348    -0.012890931   -0.0055693831
    3.279455e+08    -0.017009165     0.006166425      0.58618746     -0.80252895      0.58714402     -0.80257342    -0.013267335    -0.003594094
     3.30945e+08    -0.018266505    0.0057715227      0.58154798     -0.80584054      0.58059414     -0.80738487    -0.015498057   -0.0028895006
    3.339445e+08     -0.01974815    0.0052447467      0.57120095     -0.81188905      0.57413987     -0.81097487    -0.016904683   -0.0057032816
     3.36944e+08    -0.021544365    0.0043746902      0.56568015     -0.81419479      0.56555402     -0.81643302    -0.018153532   -0.0041777818
    3.399435e+08    -0.022688435     0.003295353      0.55684183     -0.81970844      0.55911384     -0.81980868    -0.018651043   -0.0046150299
     3.42943e+08    -0.024116038    0.0040927392      0.55211862     -0.82533346      0.55182372     -0.82525476    -0.020285299   -0.0042542715
    3.459425e+08    -0.025802647    0.0028930808      0.54221693     -0.82874791      0.54412395     -0.82968363    -0.022816933   -0.0044222632
     3.48942e+08    -0.028905943    0.0023572838      0.53559836     -0.83376216      0.53540266     -0.83378233    -0.023923425   -0.0029852365
    3.519415e+08    -0.030493612    0.0021838189      0.52682739     -0.83659378      0.52993705     -0.83853768    -0.024214576   -0.0030039831
     3.54941e+08    -0.032573399    0.0017530715      0.52154957     -0.84193792      0.52064325     -0.84313871    -0.026663843   -0.0025127865
    3.579405e+08    -0.034626521   0.00041196288      0.51317911     -0.84484351      0.51549145     -0.84677827    -0.027472774   -0.0019328763
      3.6094e+08    -0.036277334   0.00014925128      0.50461736     -0.85006837      0.50638385     -0.85197307    -0.028974935   -0.0018270073
    3.639395e+08    -0.038929524   0.00072646941      0.49771542     -0.85460523      0.49998892     -0.85599696    -0.032192026   -0.0019066967
     3.66939e+08    -0.040482455  -0.00029145628      0.49063258     -0.85928678      0.49189241     -0.85844571    -0.032520887  -0.00018499459
    3.699385e+08    -0.041830118   0.00037762391      0.48400784     -0.86303757      0.48451567     -0.86377456    -0.035704777   0.00062838632
     3.72938e+08     -0.04485549  -0.00069858079      0.47503592     -0.86552682      0.47793661     -0.86813991    -0.036810306   0.00048508883
    3.759375e+08    -0.046804955   0.00042605326      0.46708485     -0.87173599      0.46889985     -0.87266413    -0.039066923   0.00048503102
     3.78937e+08    -0.050048527   0.00057549556      0.45998769        -0.87523      0.46285281     -0.87738057    -0.041442891   0.00028065814
    3.819365e+08    -0.051585837  -0.00064422519      0.45540421       -0.879257      0.45651618      -0.8815506    -0.041535551     0.002126319
     3.84936e+08    -0.052392914   0.00017520957      0.44547344     -0.88420965      0.44691135     -0.88615762    -0.042651976   -9.758969e-05
    3.879355e+08    -0.052293642   -0.0030715433      0.43870366     -0.88781776      0.44098305     -0.88906205    -0.045216956   -0.0012048666
     3.90935e+08    -0.052464491   -0.0059340341      0.43045314      -0.8928566      0.43285833     -0.89386996    -0.045592355   -0.0035992833
    3.939345e+08    -0.052473742   -0.0095067886       0.4233001     -0.89605946      0.42484061      -0.8964924    -0.045960736   -0.0072854479
     3.96934e+08    -0.050805873    -0.013746728       0.4156392     -0.90039128      0.41758499     -0.89905099    -0.048034586    -0.011115493
    3.999335e+08    -0.051496733    -0.016325405      0.40794042     -0.90149145      0.41006786     -0.90319964    -0.049756963    -0.011740205
     4.02933e+08    -0.051075142    -0.020020558      0.40033956     -0.90652181      0.40305128     -0.90506295    -0.050683864    -0.015298992
    4.059325e+08    -0.051333469    -0.022376752      0.39311871      -0.9089682      0.39615914     -0.90979194    -0.050726137    -0.016205132
